T2434 8930:628 SEGGER J-Link V6.46 Log File (0001ms, 48576ms total)
T2434 8930:628 DLL Compiled: May 23 2019 17:49:56 (0001ms, 48576ms total)
T2434 8930:628 Logging started @ 2019-08-09 00:20 (0001ms, 48576ms total)
T2434 8930:629 JLINK_SetWarnOutHandler(...) (0000ms, 48576ms total)
T2434 8930:629 JLINK_OpenEx(...)
Firmware: J-Link V9 compiled May 17 2019 09:50:41
Hardware: V9.30
S/N: 59300616
Feature(s): RDI, FlashBP, FlashDL, JFlash, GDB
TELNET listener socket opened on port 19021WEBSRV 
Starting webserver (0081ms, 48657ms total)
T2434 8930:629 WEBSRV Webserver running on local port 19080 (0081ms, 48657ms total)
T2434 8930:629   returns O.K. (0081ms, 48657ms total)
T2434 8930:710 JLINK_GetEmuCaps()  returns 0xB9FF7BBF (0000ms, 48657ms total)
T2434 8930:711 JLINK_TIF_GetAvailable(...) (0000ms, 48657ms total)
T2434 8930:711 JLINK_SetErrorOutHandler(...) (0000ms, 48657ms total)
T2434 8930:711 JLINK_ExecCommand("ProjectFile = "F:\electronic competition\coilgun\coilgun\MDK-ARM\JLinkSettings.ini"", ...).   returns 0x00 (0002ms, 48659ms total)
T2434 8930:713 JLINK_ExecCommand("Device = STM32F407VGTx", ...). Device "STM32F407VG" selected.  returns 0x00 (0010ms, 48669ms total)
T2434 8930:723 JLINK_ExecCommand("DisableConnectionTimeout", ...).   returns 0x01 (0000ms, 48669ms total)
T2434 8930:723 JLINK_GetHardwareVersion()  returns 0x16B48 (0000ms, 48669ms total)
T2434 8930:723 JLINK_GetDLLVersion()  returns 64600 (0000ms, 48669ms total)
T2434 8930:723 JLINK_GetFirmwareString(...) (0000ms, 48669ms total)
T2434 8930:723 JLINK_GetDLLVersion()  returns 64600 (0000ms, 48669ms total)
T2434 8930:723 JLINK_GetCompileDateTime() (0000ms, 48669ms total)
T2434 8930:723 JLINK_GetFirmwareString(...) (0000ms, 48669ms total)
T2434 8930:723 JLINK_GetHardwareVersion()  returns 0x16B48 (0000ms, 48669ms total)
T2434 8930:723 JLINK_TIF_Select(JLINKARM_TIF_SWD)  returns 0x00 (0001ms, 48670ms total)
T2434 8930:724 JLINK_SetSpeed(5000) (0000ms, 48670ms total)
T2434 8930:724 JLINK_GetId() >0x10B TIF>Found SW-DP with ID 0x2BA01477 >0x0D TIF> >0x28 TIF> >0x0D TIF> >0x28 TIF> >0x0D TIF> >0x28 TIF> >0x0D TIF> >0x28 TIF> >0x0D TIF> >0x21 TIF> >0x0D TIF> >0x28 TIF> >0x0D TIF> >0x28 TIF> >0x0D TIF> >0x28 TIF> >0x0D TIF> >0x21 TIF> >0x0D TIF> >0x21 TIF> >0x0D TIF> >0x28 TIF> >0x0D TIF> >0x21 TIF> >0x0D TIF> >0x21 TIF> >0x0D TIF> >0x28 TIF> >0x0D TIF> >0x21 TIF> >0x0D TIF> >0x21 TIF> >0x0D TIF> >0x28 TIF> >0x0D TIF> >0x21 TIF> >0x0D TIF> >0x21 TIF> >0x0D TIF>
 >0x28 TIF> >0x0D TIF> >0x21 TIF> >0x0D TIF> >0x21 TIF> >0x0D TIF> >0x28 TIF> >0x0D TIF> >0x21 TIF> >0x0D TIF> >0x21 TIF> >0x10B TIF>Found SW-DP with ID 0x2BA01477 >0x0D TIF> >0x28 TIF> >0x0D TIF> >0x28 TIF> >0x0D TIF> >0x28 TIF> >0x0D TIF> >0x28 TIF> >0x0D TIF> >0x21 TIF> >0x0D TIF> >0x28 TIF>Scanning AP map to find all available APs >0x0D TIF> >0x28 TIF> >0x0D TIF> >0x21 TIF> >0x0D TIF> >0x21 TIF> >0x0D TIF> >0x28 TIF> >0x0D TIF> >0x21 TIF> >0x0D TIF> >0x21 TIF>
AP[1]: Stopped AP scan as end of AP map has been reachedAP[0]: AHB-AP (IDR: 0x24770011)Iterating through AP map to find AHB-AP to use >0x42 TIF> >0x28 TIF> >0x0D TIF> >0x28 TIF> >0x0D TIF> >0x21 TIF> >0x0D TIF> >0x21 TIF> >0x42 TIF> >0x28 TIF> >0x0D TIF> >0x28 TIF> >0x0D TIF> >0x28 TIF> >0x0D TIF> >0x21 TIF> >0x0D TIF> >0x21 TIF>AP[0]: Core foundAP[0]: AHB-AP ROM base: 0xE00FF000 >0x0D TIF> >0x28 TIF> >0x0D TIF> >0x28 TIF> >0x0D TIF> >0x28 TIF> >0x0D TIF> >0x21 TIF> >0x0D TIF> >0x21 TIF>
CPUID register: 0x410FC241. Implementer code: 0x41 (ARM)Found Cortex-M4 r0p1, Little endian. -- Max. mem block: 0x00010F28 -- CPU_ReadMem(4 bytes @ 0xE000EDF0) -- CPU_WriteMem(4 bytes @ 0xE000EDF0) -- CPU_ReadMem(4 bytes @ 0xE0002000)FPUnit: 6 code (BP) slots and 2 literal slots -- CPU_ReadMem(4 bytes @ 0xE000EDFC) -- CPU_WriteMem(4 bytes @ 0xE000EDFC) -- CPU_ReadMem(4 bytes @ 0xE0001000) -- CPU_WriteMem(4 bytes @ 0xE0001000) -- CPU_ReadMem(4 bytes @ 0xE000ED88) -- CPU_WriteMem(4 bytes @ 0xE000ED88)
 -- CPU_ReadMem(4 bytes @ 0xE000ED88) -- CPU_WriteMem(4 bytes @ 0xE000ED88)CoreSight components:ROMTbl[0] @ E00FF000 -- CPU_ReadMem(16 bytes @ 0xE00FF000) -- CPU_ReadMem(16 bytes @ 0xE000EFF0) -- CPU_ReadMem(16 bytes @ 0xE000EFE0)ROMTbl[0][0]: E000E000, CID: B105E00D, PID: 000BB00C SCS-M7 -- CPU_ReadMem(16 bytes @ 0xE0001FF0) -- CPU_ReadMem(16 bytes @ 0xE0001FE0)ROMTbl[0][1]: E0001000, CID: B105E00D, PID: 003BB002 DWT -- CPU_ReadMem(16 bytes @ 0xE0002FF0) -- CPU_ReadMem(16 bytes @ 0xE0002FE0)
ROMTbl[0][2]: E0002000, CID: B105E00D, PID: 002BB003 FPB -- CPU_ReadMem(16 bytes @ 0xE0000FF0) -- CPU_ReadMem(16 bytes @ 0xE0000FE0)ROMTbl[0][3]: E0000000, CID: B105E00D, PID: 003BB001 ITM -- CPU_ReadMem(16 bytes @ 0xE00FF010) -- CPU_ReadMem(16 bytes @ 0xE0040FF0) -- CPU_ReadMem(16 bytes @ 0xE0040FE0)ROMTbl[0][4]: E0040000, CID: B105900D, PID: 000BB9A1 TPIU -- CPU_ReadMem(16 bytes @ 0xE0041FF0) -- CPU_ReadMem(16 bytes @ 0xE0041FE0)ROMTbl[0][5]: E0041000, CID: B105900D, PID: 000BB925 ETM >0x0D TIF>
 >0x21 TIF>  returns 0x2BA01477 (0131ms, 48801ms total)
T2434 8930:855 JLINK_GetDLLVersion()  returns 64600 (0000ms, 48801ms total)
T2434 8930:855 JLINK_CORE_GetFound()  returns 0xE0000FF (0000ms, 48801ms total)
T2434 8930:855 JLINK_GetDebugInfo(0x100 = JLINKARM_ROM_TABLE_ADDR_INDEX) -- Value=0xE00FF000  returns 0x00 (0000ms, 48801ms total)
T2434 8930:855 JLINK_GetDebugInfo(0x100 = JLINKARM_ROM_TABLE_ADDR_INDEX) -- Value=0xE00FF000  returns 0x00 (0000ms, 48801ms total)
T2434 8930:855 JLINK_GetDebugInfo(0x101 = JLINKARM_DEBUG_INFO_ETM_ADDR_INDEX) -- Value=0xE0041000  returns 0x00 (0001ms, 48802ms total)
T2434 8930:856 JLINK_ReadMemEx(0xE0041FD0, 0x0020 Bytes, ..., Flags = 0x02000004) -- CPU_ReadMem(32 bytes @ 0xE0041FD0) - Data: 04 00 00 00 00 00 00 00 00 00 00 00 00 00 00 00 ...  returns 0x20 (0000ms, 48802ms total)
T2434 8930:856 JLINK_GetDebugInfo(0x102 = JLINKARM_DEBUG_INFO_MTB_ADDR_INDEX) -- Value=0x00000000  returns 0x00 (0000ms, 48802ms total)
T2434 8930:856 JLINK_GetDebugInfo(0x103 = JLINKARM_DEBUG_INFO_TPIU_ADDR_INDEX) -- Value=0xE0040000  returns 0x00 (0000ms, 48802ms total)
T2434 8930:856 JLINK_GetDebugInfo(0x104 = JLINKARM_DEBUG_INFO_ITM_ADDR_INDEX) -- Value=0xE0000000  returns 0x00 (0000ms, 48802ms total)
T2434 8930:856 JLINK_GetDebugInfo(0x105 = JLINKARM_DEBUG_INFO_DWT_ADDR_INDEX) -- Value=0xE0001000  returns 0x00 (0000ms, 48802ms total)
T2434 8930:856 JLINK_GetDebugInfo(0x106 = JLINKARM_DEBUG_INFO_FPB_ADDR_INDEX) -- Value=0xE0002000  returns 0x00 (0000ms, 48802ms total)
T2434 8930:856 JLINK_GetDebugInfo(0x107 = JLINKARM_DEBUG_INFO_NVIC_ADDR_INDEX) -- Value=0xE000E000  returns 0x00 (0000ms, 48802ms total)
T2434 8930:856 JLINK_GetDebugInfo(0x10C = JLINKARM_DEBUG_INFO_DBG_ADDR_INDEX) -- Value=0xE000EDF0  returns 0x00 (0000ms, 48802ms total)
T2434 8930:856 JLINK_GetDebugInfo(0x01 = Unknown) -- Value=0x00000001  returns 0x00 (0000ms, 48802ms total)
T2434 8930:856 JLINK_ReadMemU32(0xE000ED00, 0x0001 Items, ...) -- CPU_ReadMem(4 bytes @ 0xE000ED00) - Data: 41 C2 0F 41  returns 1 (0000ms, 48802ms total)
T2434 8930:856 JLINK_GetDebugInfo(0x10F = JLINKARM_DEBUG_INFO_HAS_CORTEX_M_SECURITY_EXT_INDEX) -- Value=0x00000000  returns 0x00 (0000ms, 48802ms total)
T2434 8930:856 JLINK_SetResetType(JLINKARM_CM3_RESET_TYPE_NORMAL)  returns JLINKARM_CM3_RESET_TYPE_NORMAL (0000ms, 48802ms total)
T2434 8930:856 JLINK_Reset() -- CPU is running -- CPU_WriteMem(4 bytes @ 0xE000EDF0) -- CPU is running -- CPU_WriteMem(4 bytes @ 0xE000EDFC)Reset: Halt core after reset via DEMCR.VC_CORERESET. >0x35 TIF>Reset: Reset device via AIRCR.SYSRESETREQ. -- CPU is running -- CPU_WriteMem(4 bytes @ 0xE000ED0C) >0x0D TIF> >0x28 TIF> -- CPU_ReadMem(4 bytes @ 0xE000EDF0) -- CPU_ReadMem(4 bytes @ 0xE000EDF0) -- CPU is running -- CPU_WriteMem(4 bytes @ 0xE000EDF0) -- CPU is running -- CPU_WriteMem(4 bytes @ 0xE000EDFC)
 -- CPU_ReadMem(4 bytes @ 0xE000EDF0) -- CPU_WriteMem(4 bytes @ 0xE0002000) -- CPU_ReadMem(4 bytes @ 0xE000EDFC) -- CPU_ReadMem(4 bytes @ 0xE0001000) (0064ms, 48866ms total)
T2434 8930:920 JLINK_ReadReg(R15 (PC))  returns 0x08000228 (0000ms, 48866ms total)
T2434 8930:920 JLINK_ReadReg(XPSR)  returns 0x01000000 (0001ms, 48867ms total)
T2434 8930:921 JLINK_Halt()  returns 0x00 (0000ms, 48867ms total)
T2434 8930:921 JLINK_ReadMemU32(0xE000EDF0, 0x0001 Items, ...) -- CPU_ReadMem(4 bytes @ 0xE000EDF0) - Data: 03 00 03 00  returns 1 (0000ms, 48867ms total)
T2434 8930:921 JLINK_WriteU32(0xE000EDF0, 0xA05F0003) -- CPU_WriteMem(4 bytes @ 0xE000EDF0)  returns 0 (0000ms, 48867ms total)
T2434 8930:921 JLINK_WriteU32(0xE000EDFC, 0x01000000) -- CPU_WriteMem(4 bytes @ 0xE000EDFC)  returns 0 (0001ms, 48868ms total)
T2434 8930:922 JLINK_WriteU32(0xE0001028, 0x00000000)  returns 0 (0000ms, 48868ms total)
T2434 8930:922 JLINK_WriteU32(0xE0001038, 0x00000000)  returns 0 (0000ms, 48868ms total)
T2434 8930:922 JLINK_WriteU32(0xE0001048, 0x00000000)  returns 0 (0000ms, 48868ms total)
T2434 8930:922 JLINK_WriteU32(0xE0001058, 0x00000000)  returns 0 (0000ms, 48868ms total)
T2434 8930:922 JLINK_GetHWStatus(...)  returns 0x00 (0000ms, 48868ms total)
T2434 8930:922 JLINK_GetNumBPUnits(Type = 0xFFFFFF00)  returns 0x06 (0000ms, 48868ms total)
T2434 8930:922 JLINK_GetNumBPUnits(Type = 0xF0)  returns 0x2000 (0000ms, 48868ms total)
T2434 8930:922 JLINK_GetNumWPUnits()  returns 0x04 (0000ms, 48868ms total)
T2434 8930:922 JLINK_GetSpeed()  returns 0xFA0 (0000ms, 48868ms total)
T2434 8930:922 JLINK_ReadMemU32(0xE000E004, 0x0001 Items, ...) -- CPU_ReadMem(4 bytes @ 0xE000E004) - Data: 02 00 00 00  returns 1 (0001ms, 48869ms total)
T2434 8930:923 JLINK_ReadMemU32(0xE000E004, 0x0001 Items, ...) -- CPU_ReadMem(4 bytes @ 0xE000E004) - Data: 02 00 00 00  returns 1 (0000ms, 48869ms total)
T2434 8930:923 JLINK_WriteMemEx(0xE0001000, 0x001C Bytes, ..., Flags = 0x02000004) - Data: 01 00 00 00 00 00 00 00 00 00 00 00 00 00 00 00 ... -- CPU_WriteMem(4 bytes @ 0xE0001028) -- CPU_WriteMem(4 bytes @ 0xE0001038) -- CPU_WriteMem(4 bytes @ 0xE0001048) -- CPU_WriteMem(4 bytes @ 0xE0001058) -- CPU_WriteMem(28 bytes @ 0xE0001000)  returns 0x1C (0002ms, 48871ms total)
T2434 8930:925 JLINK_ReadReg(R15 (PC))  returns 0x08000228 (0000ms, 48871ms total)
T2434 8930:925 JLINK_ReadReg(XPSR)  returns 0x01000000 (0000ms, 48871ms total)
T2434 8930:931 JLINK_ReadMemEx(0xE0001004, 0x0004 Bytes, ..., Flags = 0x02000000) - Data: 00 00 00 00  returns 0x04 (0000ms, 48871ms total)
T2434 8930:950 JLINK_WriteMemEx(0x08000000, 0x1000 Bytes, ..., Flags = 0x02000000) - Data: 90 12 00 20 29 02 00 08 3D 2A 00 08 35 26 00 08 ...  returns 0x1000 (0001ms, 48872ms total)
T2434 8930:953 JLINK_WriteMemEx(0x08001000, 0x1000 Bytes, ..., Flags = 0x02000000) - Data: 4C 69 02 68 42 F0 01 02 02 60 02 68 22 F4 7C 52 ...  returns 0x1000 (0000ms, 48872ms total)
T2434 8930:955 JLINK_WriteMemEx(0x08002000, 0x1000 Bytes, ..., Flags = 0x02000000) - Data: FF F7 0A FC 06 B0 BD E8 80 40 70 47 00 30 01 40 ...  returns 0x1000 (0000ms, 48872ms total)
T2434 8930:956 JLINK_WriteMemEx(0x08003000, 0x1000 Bytes, ..., Flags = 0x02000000) - Data: 4A 68 90 42 FC D0 03 44 90 42 10 46 A3 EB 02 03 ...  returns 0x1000 (0000ms, 48872ms total)
T2434 8930:957 JLINK_WriteMemEx(0x08004000, 0x1000 Bytes, ..., Flags = 0x02000000) - Data: 8D 8C 8B 89 88 87 86 85 84 83 82 81 A0 FB 00 68 ...  returns 0x1000 (0000ms, 48872ms total)
T2434 8930:958 JLINK_WriteMemEx(0x08005000, 0x02A8 Bytes, ..., Flags = 0x02000000) - Data: 21 40 20 E0 1F A0 00 00 20 40 3F C0 24 40 26 00 ...  returns 0x2A8 (0000ms, 48872ms total)
T2434 8931:016 JLINK_SetResetType(JLINKARM_CM3_RESET_TYPE_NORMAL)  returns JLINKARM_CM3_RESET_TYPE_NORMAL (0000ms, 48872ms total)
T2434 8931:016 JLINK_Reset() -- CPU_ReadMem(4 bytes @ 0xE000ED90) -- CPU_ReadMem(4 bytes @ 0xE000ED94) -- -------------------------------------- -- Start of determining dirty areas in flash cache -- End of determining dirty areas -- Start of preparing flash programming -- Calculating RAM usage -- RAM usage = 3868 Bytes -- Preserving CPU registers -- Preparing memory -- Preparing target -- Downloading RAMCode -- Checking target RAM -- Preparing RAMCode -- End of preparing flash programming
 -- CPU is running at 110000 kHz. -- Start of comparing flash -- CRC check was estimated as fastest method -- Comparing range 0x8000000 - 0x8007FFF (2 Sectors, 32 KB), using multi-block CRC calculation -- All CRCs match -- Comparing range 0x8000000 - 0x8007FFF (2 Sectors, 32 KB), using alternative multi-block CRC calculation -- All CRCs match -- End of comparing flash -- Start of erasing sectors -- End of erasing sectors -- Start of flash programming -- End of flash programming
 -- Start of verifying flash -- End of verifying flash -- Start of restoring -- Restoring RAMCode -- Restore target -- Restore memory -- Restoring CPU registers -- End of restoring -- Bank 0 @ 0x08000000: Skipped. Contents already match -- Bank 0 @ 0x08000000: Skipped. Contents already match -- CPU_WriteMem(4 bytes @ 0xE0002000) -- CPU_ReadMem(4 bytes @ 0xE0002008) -- CPU_WriteMem(4 bytes @ 0xE000EDF4) -- CPU_ReadMem(4 bytes @ 0xE000EDF8) -- CPU_WriteMem(4 bytes @ 0xE0002008)
 -- CPU_WriteMem(4 bytes @ 0xE000EDF8) -- CPU_WriteMem(4 bytes @ 0xE000EDF4) -- CPU_WriteMem(4 bytes @ 0xE000EDF0) -- CPU_WriteMem(4 bytes @ 0xE000EDF0) -- CPU_ReadMem(4 bytes @ 0xE000EDF0) -- CPU_WriteMem(4 bytes @ 0xE000EDF0) -- CPU_WriteMem(4 bytes @ 0xE0002008) -- CPU_WriteMem(4 bytes @ 0xE000EDF8) -- CPU_WriteMem(4 bytes @ 0xE000EDF4) -- CPU_WriteMem(4 bytes @ 0xE000EDF0) -- CPU_WriteMem(4 bytes @ 0xE000EDFC)Reset: Halt core after reset via DEMCR.VC_CORERESET. >0x35 TIF>
Reset: Reset device via AIRCR.SYSRESETREQ. -- CPU_WriteMem(4 bytes @ 0xE000ED0C) >0x0D TIF> >0x28 TIF> -- CPU_ReadMem(4 bytes @ 0xE000EDF0) -- CPU_ReadMem(4 bytes @ 0xE000EDF0) -- CPU_WriteMem(4 bytes @ 0xE000EDF0) -- CPU_WriteMem(4 bytes @ 0xE000EDFC) -- CPU_ReadMem(4 bytes @ 0xE000EDF0) -- CPU_WriteMem(4 bytes @ 0xE0002000) -- CPU_ReadMem(4 bytes @ 0xE000EDFC) -- CPU_ReadMem(4 bytes @ 0xE0001000) (0138ms, 49010ms total)
T2434 8931:154 JLINK_ReadReg(R15 (PC))  returns 0x08000228 (0000ms, 49010ms total)
T2434 8931:154 JLINK_ReadReg(XPSR)  returns 0x01000000 (0000ms, 49010ms total)
T2434 8931:156 JLINK_ReadMemEx(0x08000228, 0x003C Bytes, ..., Flags = 0x02000000) -- Read from flash cache (60 bytes @ 0x08000228) - Data: 09 48 80 47 09 48 00 47 FE E7 FE E7 FE E7 FE E7 ...  returns 0x3C (0000ms, 49010ms total)
T2434 8931:156 JLINK_ReadMemEx(0x08000228, 0x0002 Bytes, ..., Flags = 0x02000000) -- Read from flash cache (2 bytes @ 0x08000228) - Data: 09 48  returns 0x02 (0000ms, 49010ms total)
T2434 8931:156 JLINK_ReadMemEx(0x0800022A, 0x0002 Bytes, ..., Flags = 0x02000000) -- Read from flash cache (2 bytes @ 0x0800022A) - Data: 80 47  returns 0x02 (0000ms, 49010ms total)
T2434 8931:592 JLINK_ReadMemEx(0x40021000, 0x0014 Bytes, ..., Flags = 0x02000004) -- CPU_ReadMem(20 bytes @ 0x40021000) - Data: 00 00 00 00 00 00 00 00 00 00 00 00 00 00 00 00 ...  returns 0x14 (0001ms, 49011ms total)
T2434 8931:593 JLINK_ReadMemEx(0x40021014, 0x0004 Bytes, ..., Flags = 0x02000004) -- CPU_ReadMem(4 bytes @ 0x40021014) - Data: 00 00 00 00  returns 0x04 (0000ms, 49011ms total)
T2434 8931:593 JLINK_ReadMemEx(0x4002101C, 0x0008 Bytes, ..., Flags = 0x02000004) -- CPU_ReadMem(8 bytes @ 0x4002101C) - Data: 00 00 00 00 00 00 00 00  returns 0x08 (0000ms, 49011ms total)
T2434 8931:593 JLINK_ReadMemEx(0x40021024, 0x0004 Bytes, ..., Flags = 0x02000004) -- CPU_ReadMem(4 bytes @ 0x40021024) - Data: 00 00 00 00  returns 0x04 (0001ms, 49012ms total)
T2434 8934:746 JLINK_ReadMemEx(0x08000228, 0x003C Bytes, ..., Flags = 0x02000000) -- Read from flash cache (60 bytes @ 0x08000228) - Data: 09 48 80 47 09 48 00 47 FE E7 FE E7 FE E7 FE E7 ...  returns 0x3C (0000ms, 49012ms total)
T2434 8934:746 JLINK_ReadMemEx(0x08000228, 0x0002 Bytes, ..., Flags = 0x02000000) -- Read from flash cache (2 bytes @ 0x08000228) - Data: 09 48  returns 0x02 (0000ms, 49012ms total)
T2434 8934:746 JLINK_ReadMemEx(0x0800022A, 0x0002 Bytes, ..., Flags = 0x02000000) -- Read from flash cache (2 bytes @ 0x0800022A) - Data: 80 47  returns 0x02 (0000ms, 49012ms total)
T2434 8934:746 JLINK_ReadMemEx(0x0800022A, 0x0002 Bytes, ..., Flags = 0x02000000) -- Read from flash cache (2 bytes @ 0x0800022A) - Data: 80 47  returns 0x02 (0000ms, 49012ms total)
T2434 8934:746 JLINK_ReadMemEx(0x0800022C, 0x003C Bytes, ..., Flags = 0x02000000) -- Read from flash cache (60 bytes @ 0x0800022C) - Data: 09 48 00 47 FE E7 FE E7 FE E7 FE E7 FE E7 FE E7 ...  returns 0x3C (0000ms, 49012ms total)
T2434 8934:746 JLINK_ReadMemEx(0x0800022C, 0x0002 Bytes, ..., Flags = 0x02000000) -- Read from flash cache (2 bytes @ 0x0800022C) - Data: 09 48  returns 0x02 (0000ms, 49012ms total)
T2434 8936:443 JLINK_ReadReg(R0)  returns 0x00000000 (0001ms, 49013ms total)
T2434 8936:444 JLINK_ReadReg(R1)  returns 0x00000000 (0000ms, 49013ms total)
T2434 8936:444 JLINK_ReadReg(R2)  returns 0x00000000 (0000ms, 49013ms total)
T2434 8936:444 JLINK_ReadReg(R3)  returns 0x00000000 (0000ms, 49013ms total)
T2434 8936:444 JLINK_ReadReg(R4)  returns 0x00000000 (0000ms, 49013ms total)
T2434 8936:444 JLINK_ReadReg(R5)  returns 0x00000000 (0000ms, 49013ms total)
T2434 8936:444 JLINK_ReadReg(R6)  returns 0x00000000 (0000ms, 49013ms total)
T2434 8936:444 JLINK_ReadReg(R7)  returns 0x00000000 (0000ms, 49013ms total)
T2434 8936:444 JLINK_ReadReg(R8)  returns 0x00000000 (0000ms, 49013ms total)
T2434 8936:444 JLINK_ReadReg(R9)  returns 0x00000000 (0000ms, 49013ms total)
T2434 8936:444 JLINK_ReadReg(R10)  returns 0x00000000 (0000ms, 49013ms total)
T2434 8936:444 JLINK_ReadReg(R11)  returns 0x00000000 (0000ms, 49013ms total)
T2434 8936:444 JLINK_ReadReg(R12)  returns 0x00000000 (0000ms, 49013ms total)
T2434 8936:444 JLINK_ReadReg(R13 (SP))  returns 0x20001290 (0000ms, 49013ms total)
T2434 8936:444 JLINK_ReadReg(R14)  returns 0xFFFFFFFF (0000ms, 49013ms total)
T2434 8936:444 JLINK_ReadReg(R15 (PC))  returns 0x08000228 (0000ms, 49013ms total)
T2434 8936:444 JLINK_ReadReg(XPSR)  returns 0x01000000 (0000ms, 49013ms total)
T2434 8936:444 JLINK_ReadReg(MSP)  returns 0x20001290 (0000ms, 49013ms total)
T2434 8936:444 JLINK_ReadReg(PSP)  returns 0x00000000 (0000ms, 49013ms total)
T2434 8936:444 JLINK_ReadReg(CFBP)  returns 0x00000000 (0001ms, 49014ms total)
T2434 8936:445 JLINK_ReadReg(FPSCR)  returns 0x00000000 (0003ms, 49017ms total)
T2434 8936:448 JLINK_ReadReg(FPS0)  returns 0x00000000 (0000ms, 49017ms total)
T2434 8936:448 JLINK_ReadReg(FPS1)  returns 0x00000000 (0000ms, 49017ms total)
T2434 8936:448 JLINK_ReadReg(FPS2)  returns 0x00000000 (0000ms, 49017ms total)
T2434 8936:448 JLINK_ReadReg(FPS3)  returns 0x00000000 (0000ms, 49017ms total)
T2434 8936:448 JLINK_ReadReg(FPS4)  returns 0x00000000 (0000ms, 49017ms total)
T2434 8936:448 JLINK_ReadReg(FPS5)  returns 0x00000000 (0000ms, 49017ms total)
T2434 8936:448 JLINK_ReadReg(FPS6)  returns 0x00000000 (0000ms, 49017ms total)
T2434 8936:448 JLINK_ReadReg(FPS7)  returns 0x00000000 (0000ms, 49017ms total)
T2434 8936:448 JLINK_ReadReg(FPS8)  returns 0x00000000 (0000ms, 49017ms total)
T2434 8936:448 JLINK_ReadReg(FPS9)  returns 0x00000000 (0000ms, 49017ms total)
T2434 8936:448 JLINK_ReadReg(FPS10)  returns 0x00000000 (0000ms, 49017ms total)
T2434 8936:448 JLINK_ReadReg(FPS11)  returns 0x00000000 (0000ms, 49017ms total)
T2434 8936:448 JLINK_ReadReg(FPS12)  returns 0x00000000 (0000ms, 49017ms total)
T2434 8936:448 JLINK_ReadReg(FPS13)  returns 0x00000000 (0000ms, 49017ms total)
T2434 8936:448 JLINK_ReadReg(FPS14)  returns 0x00000000 (0000ms, 49017ms total)
T2434 8936:448 JLINK_ReadReg(FPS15)  returns 0x00000000 (0000ms, 49017ms total)
T2434 8936:448 JLINK_ReadReg(FPS16)  returns 0x00000000 (0000ms, 49017ms total)
T2434 8936:448 JLINK_ReadReg(FPS17)  returns 0x00000000 (0000ms, 49017ms total)
T2434 8936:448 JLINK_ReadReg(FPS18)  returns 0x00000000 (0000ms, 49017ms total)
T2434 8936:448 JLINK_ReadReg(FPS19)  returns 0x00000000 (0000ms, 49017ms total)
T2434 8936:448 JLINK_ReadReg(FPS20)  returns 0x00000000 (0000ms, 49017ms total)
T2434 8936:448 JLINK_ReadReg(FPS21)  returns 0x00000000 (0000ms, 49017ms total)
T2434 8936:448 JLINK_ReadReg(FPS22)  returns 0x00000000 (0000ms, 49017ms total)
T2434 8936:448 JLINK_ReadReg(FPS23)  returns 0x00000000 (0000ms, 49017ms total)
T2434 8936:448 JLINK_ReadReg(FPS24)  returns 0x00000000 (0001ms, 49018ms total)
T2434 8936:449 JLINK_ReadReg(FPS25)  returns 0x00000000 (0000ms, 49018ms total)
T2434 8936:449 JLINK_ReadReg(FPS26)  returns 0x00000000 (0000ms, 49018ms total)
T2434 8936:449 JLINK_ReadReg(FPS27)  returns 0x00000000 (0000ms, 49018ms total)
T2434 8936:449 JLINK_ReadReg(FPS28)  returns 0x00000000 (0000ms, 49018ms total)
T2434 8936:449 JLINK_ReadReg(FPS29)  returns 0x00000000 (0000ms, 49018ms total)
T2434 8936:449 JLINK_ReadReg(FPS30)  returns 0x00000000 (0000ms, 49018ms total)
T2434 8936:449 JLINK_ReadReg(FPS31)  returns 0x00000000 (0000ms, 49018ms total)
T2434 8936:449 JLINK_ReadMemEx(0x20000088, 0x0001 Bytes, ..., Flags = 0x02000000) -- CPU_ReadMem(64 bytes @ 0x20000080) -- Updating C cache (64 bytes @ 0x20000080) -- Read from C cache (1 bytes @ 0x20000088) - Data: 10  returns 0x01 (0000ms, 49018ms total)
T2434 8936:454 JLINK_ReadMemEx(0x20000088, 0x0001 Bytes, ..., Flags = 0x02000000) -- Read from C cache (1 bytes @ 0x20000088) - Data: 10  returns 0x01 (0000ms, 49018ms total)
T2434 8936:454 JLINK_ReadMemEx(0x20000088, 0x0001 Bytes, ..., Flags = 0x02000000) -- Read from C cache (1 bytes @ 0x20000088) - Data: 10  returns 0x01 (0000ms, 49018ms total)
T2434 8936:456 JLINK_ReadMemEx(0x20000089, 0x0001 Bytes, ..., Flags = 0x02000000) -- Read from C cache (1 bytes @ 0x20000089) - Data: 3A  returns 0x01 (0000ms, 49018ms total)
T2434 8936:456 JLINK_ReadMemEx(0x20000089, 0x0001 Bytes, ..., Flags = 0x02000000) -- Read from C cache (1 bytes @ 0x20000089) - Data: 3A  returns 0x01 (0000ms, 49018ms total)
T2434 8936:456 JLINK_ReadMemEx(0x20000089, 0x0001 Bytes, ..., Flags = 0x02000000) -- Read from C cache (1 bytes @ 0x20000089) - Data: 3A  returns 0x01 (0000ms, 49018ms total)
T2434 8936:457 JLINK_ReadMemEx(0x2000008A, 0x0002 Bytes, ..., Flags = 0x02000000) -- Read from C cache (2 bytes @ 0x2000008A) - Data: F4 D1  returns 0x02 (0001ms, 49019ms total)
T2434 8936:458 JLINK_ReadMemEx(0x2000008A, 0x0002 Bytes, ..., Flags = 0x02000000) -- Read from C cache (2 bytes @ 0x2000008A) - Data: F4 D1  returns 0x02 (0000ms, 49019ms total)
T2434 8936:458 JLINK_ReadMemEx(0x2000008A, 0x0002 Bytes, ..., Flags = 0x02000000) -- Read from C cache (2 bytes @ 0x2000008A) - Data: F4 D1  returns 0x02 (0000ms, 49019ms total)
T2434 8936:458 JLINK_ReadMemEx(0x20000024, 0x0001 Bytes, ..., Flags = 0x02000000) -- CPU_ReadMem(64 bytes @ 0x20000000) -- Updating C cache (64 bytes @ 0x20000000) -- Read from C cache (1 bytes @ 0x20000024) - Data: 5B  returns 0x01 (0001ms, 49020ms total)
T2434 8936:459 JLINK_ReadMemEx(0x20000024, 0x0001 Bytes, ..., Flags = 0x02000000) -- Read from C cache (1 bytes @ 0x20000024) - Data: 5B  returns 0x01 (0000ms, 49020ms total)
T2434 8936:459 JLINK_ReadMemEx(0x20000024, 0x0001 Bytes, ..., Flags = 0x02000000) -- Read from C cache (1 bytes @ 0x20000024) - Data: 5B  returns 0x01 (0000ms, 49020ms total)
T1730 8936:506 JLINK_ReadMemEx(0x08000228, 0x0002 Bytes, ..., Flags = 0x02000000) -- Read from flash cache (2 bytes @ 0x08000228) - Data: 09 48  returns 0x02 (0000ms, 49020ms total)
T1730 8936:506 JLINK_SetBPEx(Addr = 0x08003204, Type = 0xFFFFFFF2)  returns 0x00000001 (0000ms, 49020ms total)
T1730 8936:506 JLINK_Go() -- CPU_WriteMem(4 bytes @ 0xE0002000) -- CPU_ReadMem(4 bytes @ 0xE0001000) -- CPU_WriteMem(4 bytes @ 0xE0002008) -- CPU_WriteMem(4 bytes @ 0xE000200C) -- CPU_WriteMem(4 bytes @ 0xE0002010) -- CPU_WriteMem(4 bytes @ 0xE0002014) -- CPU_WriteMem(4 bytes @ 0xE0002018) -- CPU_WriteMem(4 bytes @ 0xE000201C) -- CPU_WriteMem(4 bytes @ 0xE0001004) (0003ms, 49023ms total)
T1730 8936:610 JLINK_IsHalted()  returns TRUE (0001ms, 49024ms total)
T1730 8936:611 JLINK_Halt()  returns 0x00 (0001ms, 49024ms total)
T1730 8936:612 JLINK_IsHalted()  returns TRUE (0000ms, 49024ms total)
T1730 8936:612 JLINK_IsHalted()  returns TRUE (0000ms, 49024ms total)
T1730 8936:612 JLINK_IsHalted()  returns TRUE (0000ms, 49024ms total)
T1730 8936:612 JLINK_ReadReg(R15 (PC))  returns 0x08003204 (0000ms, 49024ms total)
T1730 8936:612 JLINK_ReadReg(XPSR)  returns 0x21000000 (0000ms, 49024ms total)
T1730 8936:612 JLINK_ClrBPEx(BPHandle = 0x00000001)  returns 0x00 (0000ms, 49024ms total)
T1730 8936:612 JLINK_ReadMemU32(0xE000ED30, 0x0001 Items, ...) -- CPU_ReadMem(4 bytes @ 0xE000ED30) - Data: 02 00 00 00  returns 1 (0000ms, 49024ms total)
T1730 8936:612 JLINK_ReadMemU32(0xE0001028, 0x0001 Items, ...) -- CPU_ReadMem(4 bytes @ 0xE0001028) - Data: 00 00 00 00  returns 1 (0000ms, 49024ms total)
T1730 8936:612 JLINK_ReadMemU32(0xE0001038, 0x0001 Items, ...) -- CPU_ReadMem(4 bytes @ 0xE0001038) - Data: 00 02 00 00  returns 1 (0001ms, 49025ms total)
T1730 8936:613 JLINK_ReadMemU32(0xE0001048, 0x0001 Items, ...) -- CPU_ReadMem(4 bytes @ 0xE0001048) - Data: 00 00 00 00  returns 1 (0000ms, 49025ms total)
T1730 8936:613 JLINK_ReadMemU32(0xE0001058, 0x0001 Items, ...) -- CPU_ReadMem(4 bytes @ 0xE0001058) - Data: 00 00 00 00  returns 1 (0000ms, 49025ms total)
T1730 8936:614 JLINK_ReadReg(R0)  returns 0x20000C90 (0000ms, 49025ms total)
T1730 8936:614 JLINK_ReadReg(R1)  returns 0x20000E90 (0000ms, 49025ms total)
T1730 8936:614 JLINK_ReadReg(R2)  returns 0x20000E90 (0000ms, 49025ms total)
T1730 8936:614 JLINK_ReadReg(R3)  returns 0x20000E90 (0000ms, 49025ms total)
T1730 8936:614 JLINK_ReadReg(R4)  returns 0x00000000 (0000ms, 49025ms total)
T1730 8936:614 JLINK_ReadReg(R5)  returns 0x20000028 (0000ms, 49025ms total)
T1730 8936:614 JLINK_ReadReg(R6)  returns 0x00000000 (0000ms, 49025ms total)
T1730 8936:614 JLINK_ReadReg(R7)  returns 0x00000000 (0000ms, 49025ms total)
T1730 8936:614 JLINK_ReadReg(R8)  returns 0x00000000 (0000ms, 49025ms total)
T1730 8936:614 JLINK_ReadReg(R9)  returns 0x00000000 (0000ms, 49025ms total)
T1730 8936:614 JLINK_ReadReg(R10)  returns 0x0800527C (0000ms, 49025ms total)
T1730 8936:614 JLINK_ReadReg(R11)  returns 0x00000000 (0000ms, 49025ms total)
T1730 8936:614 JLINK_ReadReg(R12)  returns 0x20000068 (0000ms, 49025ms total)
T1730 8936:614 JLINK_ReadReg(R13 (SP))  returns 0x20001290 (0000ms, 49025ms total)
T1730 8936:614 JLINK_ReadReg(R14)  returns 0x08000217 (0000ms, 49025ms total)
T1730 8936:614 JLINK_ReadReg(R15 (PC))  returns 0x08003204 (0000ms, 49025ms total)
T1730 8936:614 JLINK_ReadReg(XPSR)  returns 0x21000000 (0000ms, 49025ms total)
T1730 8936:614 JLINK_ReadReg(MSP)  returns 0x20001290 (0000ms, 49025ms total)
T1730 8936:614 JLINK_ReadReg(PSP)  returns 0x00000000 (0000ms, 49025ms total)
T1730 8936:614 JLINK_ReadReg(CFBP)  returns 0x04000000 (0000ms, 49025ms total)
T1730 8936:614 JLINK_ReadReg(FPSCR)  returns 0x00000000 (0003ms, 49028ms total)
T1730 8936:617 JLINK_ReadReg(FPS0)  returns 0x00000000 (0000ms, 49028ms total)
T1730 8936:617 JLINK_ReadReg(FPS1)  returns 0x00000000 (0000ms, 49028ms total)
T1730 8936:617 JLINK_ReadReg(FPS2)  returns 0x00000000 (0001ms, 49029ms total)
T1730 8936:618 JLINK_ReadReg(FPS3)  returns 0x00000000 (0000ms, 49029ms total)
T1730 8936:618 JLINK_ReadReg(FPS4)  returns 0x00000000 (0000ms, 49029ms total)
T1730 8936:618 JLINK_ReadReg(FPS5)  returns 0x00000000 (0000ms, 49029ms total)
T1730 8936:618 JLINK_ReadReg(FPS6)  returns 0x00000000 (0000ms, 49029ms total)
T1730 8936:618 JLINK_ReadReg(FPS7)  returns 0x00000000 (0000ms, 49029ms total)
T1730 8936:618 JLINK_ReadReg(FPS8)  returns 0x00000000 (0000ms, 49029ms total)
T1730 8936:618 JLINK_ReadReg(FPS9)  returns 0x00000000 (0000ms, 49029ms total)
T1730 8936:618 JLINK_ReadReg(FPS10)  returns 0x00000000 (0000ms, 49029ms total)
T1730 8936:618 JLINK_ReadReg(FPS11)  returns 0x00000000 (0000ms, 49029ms total)
T1730 8936:618 JLINK_ReadReg(FPS12)  returns 0x00000000 (0000ms, 49029ms total)
T1730 8936:618 JLINK_ReadReg(FPS13)  returns 0x00000000 (0000ms, 49029ms total)
T1730 8936:618 JLINK_ReadReg(FPS14)  returns 0x00000000 (0000ms, 49029ms total)
T1730 8936:618 JLINK_ReadReg(FPS15)  returns 0x00000000 (0000ms, 49029ms total)
T1730 8936:618 JLINK_ReadReg(FPS16)  returns 0x00000000 (0000ms, 49029ms total)
T1730 8936:618 JLINK_ReadReg(FPS17)  returns 0x00000000 (0000ms, 49029ms total)
T1730 8936:618 JLINK_ReadReg(FPS18)  returns 0x00000000 (0000ms, 49029ms total)
T1730 8936:618 JLINK_ReadReg(FPS19)  returns 0x00000000 (0000ms, 49029ms total)
T1730 8936:618 JLINK_ReadReg(FPS20)  returns 0x00000000 (0000ms, 49029ms total)
T1730 8936:618 JLINK_ReadReg(FPS21)  returns 0x00000000 (0001ms, 49030ms total)
T1730 8936:619 JLINK_ReadReg(FPS22)  returns 0x00000000 (0000ms, 49030ms total)
T1730 8936:619 JLINK_ReadReg(FPS23)  returns 0x00000000 (0000ms, 49030ms total)
T1730 8936:619 JLINK_ReadReg(FPS24)  returns 0x00000000 (0000ms, 49030ms total)
T1730 8936:619 JLINK_ReadReg(FPS25)  returns 0x00000000 (0000ms, 49030ms total)
T1730 8936:619 JLINK_ReadReg(FPS26)  returns 0x00000000 (0000ms, 49030ms total)
T1730 8936:619 JLINK_ReadReg(FPS27)  returns 0x00000000 (0000ms, 49030ms total)
T1730 8936:619 JLINK_ReadReg(FPS28)  returns 0x00000000 (0000ms, 49030ms total)
T1730 8936:619 JLINK_ReadReg(FPS29)  returns 0x00000000 (0000ms, 49030ms total)
T1730 8936:619 JLINK_ReadReg(FPS30)  returns 0x00000000 (0000ms, 49030ms total)
T1730 8936:619 JLINK_ReadReg(FPS31)  returns 0x00000000 (0000ms, 49030ms total)
T2434 8936:629 JLINK_ReadMemEx(0x20000088, 0x0001 Bytes, ..., Flags = 0x02000000) -- CPU_ReadMem(64 bytes @ 0x20000080) -- Updating C cache (64 bytes @ 0x20000080) -- Read from C cache (1 bytes @ 0x20000088) - Data: 00  returns 0x01 (0001ms, 49031ms total)
T2434 8936:630 JLINK_ReadMemEx(0x20000089, 0x0001 Bytes, ..., Flags = 0x02000000) -- Read from C cache (1 bytes @ 0x20000089) - Data: 00  returns 0x01 (0000ms, 49031ms total)
T2434 8936:630 JLINK_ReadMemEx(0x2000008A, 0x0002 Bytes, ..., Flags = 0x02000000) -- Read from C cache (2 bytes @ 0x2000008A) - Data: 00 00  returns 0x02 (0000ms, 49031ms total)
T2434 8936:630 JLINK_ReadMemEx(0x20000024, 0x0001 Bytes, ..., Flags = 0x02000000) -- CPU_ReadMem(64 bytes @ 0x20000000) -- Updating C cache (64 bytes @ 0x20000000) -- Read from C cache (1 bytes @ 0x20000024) - Data: FF  returns 0x01 (0000ms, 49031ms total)
T2434 8936:630 JLINK_ReadMemEx(0x40021000, 0x0014 Bytes, ..., Flags = 0x02000004) -- CPU_ReadMem(20 bytes @ 0x40021000) - Data: 00 00 00 00 00 00 00 00 00 00 00 00 00 00 00 00 ...  returns 0x14 (0000ms, 49031ms total)
T2434 8936:630 JLINK_ReadMemEx(0x40021014, 0x0004 Bytes, ..., Flags = 0x02000004) -- CPU_ReadMem(4 bytes @ 0x40021014) - Data: 00 00 00 00  returns 0x04 (0001ms, 49032ms total)
T2434 8936:631 JLINK_ReadMemEx(0x4002101C, 0x0008 Bytes, ..., Flags = 0x02000004) -- CPU_ReadMem(8 bytes @ 0x4002101C) - Data: 00 00 00 00 00 00 00 00  returns 0x08 (0000ms, 49032ms total)
T2434 8936:631 JLINK_ReadMemEx(0x40021024, 0x0004 Bytes, ..., Flags = 0x02000004) -- CPU_ReadMem(4 bytes @ 0x40021024) - Data: 00 00 00 00  returns 0x04 (0000ms, 49032ms total)
T2434 8936:633 JLINK_ReadMemEx(0x08003204, 0x003C Bytes, ..., Flags = 0x02000000) -- Read from flash cache (60 bytes @ 0x08003204) - Data: DA B0 FE F7 E1 FB FF F7 D5 FC A8 20 FF F7 D8 FE ...  returns 0x3C (0000ms, 49032ms total)
T2434 8936:633 JLINK_ReadMemEx(0x08003204, 0x0002 Bytes, ..., Flags = 0x02000000) -- Read from flash cache (2 bytes @ 0x08003204) - Data: DA B0  returns 0x02 (0000ms, 49032ms total)
T2434 8936:634 JLINK_ReadMemEx(0x08003206, 0x0002 Bytes, ..., Flags = 0x02000000) -- Read from flash cache (2 bytes @ 0x08003206) - Data: FE F7  returns 0x02 (0000ms, 49032ms total)
T1730 8937:804 JLINK_ReadMemEx(0x08003204, 0x0002 Bytes, ..., Flags = 0x02000000) -- Read from flash cache (2 bytes @ 0x08003204) - Data: DA B0  returns 0x02 (0000ms, 49032ms total)
T1730 8937:804 JLINK_Go() -- CPU_ReadMem(4 bytes @ 0xE0001000) -- CPU_WriteMem(4 bytes @ 0xE0002008) (0001ms, 49033ms total)
T1730 8937:907 JLINK_IsHalted()  returns FALSE (0000ms, 49033ms total)
T1730 8938:007 JLINK_IsHalted()  returns FALSE (0000ms, 49033ms total)
T1730 8938:108 JLINK_IsHalted()  returns FALSE (0000ms, 49033ms total)
T1730 8938:209 JLINK_IsHalted()  returns FALSE (0000ms, 49033ms total)
T1730 8938:310 JLINK_IsHalted()  returns FALSE (0000ms, 49033ms total)
T1730 8938:410 JLINK_ReadMemU32(0xE0001004, 0x0001 Items, ...) -- CPU_ReadMem(4 bytes @ 0xE0001004) - Data: D6 F9 0E 06  returns 1 (0000ms, 49033ms total)
T2434 8938:410 JLINK_ReadMemEx(0x20000088, 0x0001 Bytes, ..., Flags = 0x02000000) -- CPU_ReadMem(1 bytes @ 0x20000088) - Data: 00  returns 0x01 (0001ms, 49034ms total)
T2434 8938:411 JLINK_ReadMemEx(0x20000089, 0x0001 Bytes, ..., Flags = 0x02000000) -- CPU_ReadMem(1 bytes @ 0x20000089) - Data: 00  returns 0x01 (0000ms, 49034ms total)
T2434 8938:411 JLINK_ReadMemEx(0x2000008A, 0x0002 Bytes, ..., Flags = 0x02000000) -- CPU_ReadMem(2 bytes @ 0x2000008A) - Data: 00 00  returns 0x02 (0001ms, 49035ms total)
T2434 8938:412 JLINK_ReadMemEx(0x20000024, 0x0001 Bytes, ..., Flags = 0x02000000) -- CPU_ReadMem(1 bytes @ 0x20000024) - Data: FF  returns 0x01 (0000ms, 49035ms total)
T2434 8938:412 JLINK_ReadMemEx(0x40021000, 0x0014 Bytes, ..., Flags = 0x02000004) -- CPU_ReadMem(20 bytes @ 0x40021000) - Data: 10 00 00 00 00 00 00 00 00 00 00 00 00 00 00 00 ...  returns 0x14 (0000ms, 49035ms total)
T2434 8938:412 JLINK_ReadMemEx(0x40021014, 0x0004 Bytes, ..., Flags = 0x02000004) -- CPU_ReadMem(4 bytes @ 0x40021014) - Data: 00 00 00 00  returns 0x04 (0001ms, 49036ms total)
T2434 8938:413 JLINK_ReadMemEx(0x4002101C, 0x0008 Bytes, ..., Flags = 0x02000004) -- CPU_ReadMem(8 bytes @ 0x4002101C) - Data: 00 00 00 00 00 00 00 00  returns 0x08 (0000ms, 49036ms total)
T2434 8938:413 JLINK_ReadMemEx(0x40021024, 0x0004 Bytes, ..., Flags = 0x02000004) -- CPU_ReadMem(4 bytes @ 0x40021024) - Data: 00 00 00 00  returns 0x04 (0001ms, 49037ms total)
T1730 8938:433 JLINK_IsHalted()  returns FALSE (0000ms, 49037ms total)
T1730 8938:534 JLINK_IsHalted()  returns FALSE (0000ms, 49037ms total)
T1730 8938:635 JLINK_IsHalted()  returns FALSE (0000ms, 49037ms total)
T1730 8938:736 JLINK_IsHalted()  returns FALSE (0000ms, 49037ms total)
T1730 8938:836 JLINK_IsHalted()  returns FALSE (0000ms, 49037ms total)
T1730 8938:937 JLINK_ReadMemU32(0xE0001004, 0x0001 Items, ...) - Data: D6 F9 0E 06  returns 1 (0000ms, 49037ms total)
T2434 8938:937 JLINK_ReadMemEx(0x20000088, 0x0001 Bytes, ..., Flags = 0x02000000) -- CPU_ReadMem(1 bytes @ 0x20000088) - Data: 00  returns 0x01 (0000ms, 49037ms total)
T2434 8938:937 JLINK_ReadMemEx(0x20000089, 0x0001 Bytes, ..., Flags = 0x02000000) -- CPU_ReadMem(1 bytes @ 0x20000089) - Data: 00  returns 0x01 (0001ms, 49038ms total)
T2434 8938:938 JLINK_ReadMemEx(0x2000008A, 0x0002 Bytes, ..., Flags = 0x02000000) -- CPU_ReadMem(2 bytes @ 0x2000008A) - Data: 00 00  returns 0x02 (0000ms, 49038ms total)
T2434 8938:938 JLINK_ReadMemEx(0x20000024, 0x0001 Bytes, ..., Flags = 0x02000000) -- CPU_ReadMem(1 bytes @ 0x20000024) - Data: FF  returns 0x01 (0000ms, 49038ms total)
T2434 8938:938 JLINK_ReadMemEx(0x40021000, 0x0014 Bytes, ..., Flags = 0x02000004) -- CPU_ReadMem(20 bytes @ 0x40021000) - Data: 10 00 00 00 00 00 00 00 00 00 00 00 00 00 00 00 ...  returns 0x14 (0001ms, 49039ms total)
T2434 8938:939 JLINK_ReadMemEx(0x40021014, 0x0004 Bytes, ..., Flags = 0x02000004) -- CPU_ReadMem(4 bytes @ 0x40021014) - Data: 00 00 00 00  returns 0x04 (0000ms, 49039ms total)
T2434 8938:939 JLINK_ReadMemEx(0x4002101C, 0x0008 Bytes, ..., Flags = 0x02000004) -- CPU_ReadMem(8 bytes @ 0x4002101C) - Data: 00 00 00 00 00 00 00 00  returns 0x08 (0001ms, 49040ms total)
T2434 8938:940 JLINK_ReadMemEx(0x40021024, 0x0004 Bytes, ..., Flags = 0x02000004) -- CPU_ReadMem(4 bytes @ 0x40021024) - Data: 00 00 00 00  returns 0x04 (0000ms, 49040ms total)
T1730 8938:943 JLINK_IsHalted()  returns FALSE (0000ms, 49040ms total)
T1730 8939:045 JLINK_IsHalted()  returns FALSE (0000ms, 49040ms total)
T1730 8939:146 JLINK_IsHalted()  returns FALSE (0000ms, 49040ms total)
T1730 8939:247 JLINK_IsHalted()  returns FALSE (0000ms, 49040ms total)
T1730 8939:348 JLINK_IsHalted()  returns FALSE (0000ms, 49040ms total)
T1730 8939:448 JLINK_IsHalted()  returns FALSE (0000ms, 49040ms total)
T1730 8939:550 JLINK_ReadMemU32(0xE0001004, 0x0001 Items, ...) - Data: D6 F9 0E 06  returns 1 (0000ms, 49040ms total)
T2434 8939:553 JLINK_ReadMemEx(0x20000088, 0x0001 Bytes, ..., Flags = 0x02000000) -- CPU_ReadMem(1 bytes @ 0x20000088) - Data: 00  returns 0x01 (0000ms, 49040ms total)
T2434 8939:553 JLINK_ReadMemEx(0x20000089, 0x0001 Bytes, ..., Flags = 0x02000000) -- CPU_ReadMem(1 bytes @ 0x20000089) - Data: 00  returns 0x01 (0000ms, 49040ms total)
T2434 8939:553 JLINK_ReadMemEx(0x2000008A, 0x0002 Bytes, ..., Flags = 0x02000000) -- CPU_ReadMem(2 bytes @ 0x2000008A) - Data: 00 00  returns 0x02 (0001ms, 49041ms total)
T2434 8939:554 JLINK_ReadMemEx(0x20000024, 0x0001 Bytes, ..., Flags = 0x02000000) -- CPU_ReadMem(1 bytes @ 0x20000024) - Data: 01  returns 0x01 (0000ms, 49041ms total)
T2434 8939:554 JLINK_ReadMemEx(0x40021000, 0x0014 Bytes, ..., Flags = 0x02000004) -- CPU_ReadMem(20 bytes @ 0x40021000) - Data: 10 00 00 00 00 00 00 00 00 00 00 00 00 00 00 00 ...  returns 0x14 (0001ms, 49042ms total)
T2434 8939:555 JLINK_ReadMemEx(0x40021014, 0x0004 Bytes, ..., Flags = 0x02000004) -- CPU_ReadMem(4 bytes @ 0x40021014) - Data: 00 00 00 00  returns 0x04 (0000ms, 49042ms total)
T2434 8939:555 JLINK_ReadMemEx(0x4002101C, 0x0008 Bytes, ..., Flags = 0x02000004) -- CPU_ReadMem(8 bytes @ 0x4002101C) - Data: 00 00 00 00 00 00 00 00  returns 0x08 (0000ms, 49042ms total)
T2434 8939:555 JLINK_ReadMemEx(0x40021024, 0x0004 Bytes, ..., Flags = 0x02000004) -- CPU_ReadMem(4 bytes @ 0x40021024) - Data: 00 00 00 00  returns 0x04 (0000ms, 49042ms total)
T1730 8939:556 JLINK_IsHalted()  returns FALSE (0000ms, 49042ms total)
T1730 8939:657 JLINK_IsHalted()  returns FALSE (0000ms, 49042ms total)
T1730 8939:758 JLINK_IsHalted()  returns FALSE (0000ms, 49042ms total)
T1730 8939:859 JLINK_IsHalted()  returns FALSE (0000ms, 49042ms total)
T1730 8939:960 JLINK_IsHalted()  returns FALSE (0000ms, 49042ms total)
T1730 8940:060 JLINK_ReadMemU32(0xE0001004, 0x0001 Items, ...) - Data: D6 F9 0E 06  returns 1 (0000ms, 49042ms total)
T2434 8940:060 JLINK_ReadMemEx(0x20000088, 0x0001 Bytes, ..., Flags = 0x02000000) -- CPU_ReadMem(1 bytes @ 0x20000088) - Data: 00  returns 0x01 (0000ms, 49042ms total)
T2434 8940:060 JLINK_ReadMemEx(0x20000089, 0x0001 Bytes, ..., Flags = 0x02000000) -- CPU_ReadMem(1 bytes @ 0x20000089) - Data: 00  returns 0x01 (0001ms, 49043ms total)
T2434 8940:061 JLINK_ReadMemEx(0x2000008A, 0x0002 Bytes, ..., Flags = 0x02000000) -- CPU_ReadMem(2 bytes @ 0x2000008A) - Data: 00 00  returns 0x02 (0000ms, 49043ms total)
T2434 8940:061 JLINK_ReadMemEx(0x20000024, 0x0001 Bytes, ..., Flags = 0x02000000) -- CPU_ReadMem(1 bytes @ 0x20000024) - Data: 01  returns 0x01 (0000ms, 49043ms total)
T2434 8940:062 JLINK_ReadMemEx(0x40021000, 0x0014 Bytes, ..., Flags = 0x02000004) -- CPU_ReadMem(20 bytes @ 0x40021000) - Data: 10 00 00 00 00 00 00 00 00 00 00 00 00 00 00 00 ...  returns 0x14 (0000ms, 49043ms total)
T2434 8940:062 JLINK_ReadMemEx(0x40021014, 0x0004 Bytes, ..., Flags = 0x02000004) -- CPU_ReadMem(4 bytes @ 0x40021014) - Data: 00 00 00 00  returns 0x04 (0000ms, 49043ms total)
T2434 8940:062 JLINK_ReadMemEx(0x4002101C, 0x0008 Bytes, ..., Flags = 0x02000004) -- CPU_ReadMem(8 bytes @ 0x4002101C) - Data: 00 00 00 00 00 00 00 00  returns 0x08 (0001ms, 49044ms total)
T2434 8940:063 JLINK_ReadMemEx(0x40021024, 0x0004 Bytes, ..., Flags = 0x02000004) -- CPU_ReadMem(4 bytes @ 0x40021024) - Data: 00 00 00 00  returns 0x04 (0000ms, 49044ms total)
T1730 8940:064 JLINK_IsHalted()  returns FALSE (0001ms, 49045ms total)
T1730 8940:166 JLINK_IsHalted()  returns FALSE (0000ms, 49044ms total)
T1730 8940:267 JLINK_IsHalted()  returns FALSE (0000ms, 49044ms total)
T1730 8940:367 JLINK_IsHalted()  returns FALSE (0000ms, 49044ms total)
T1730 8940:468 JLINK_IsHalted()  returns FALSE (0000ms, 49044ms total)
T1730 8940:570 JLINK_IsHalted()  returns FALSE (0000ms, 49044ms total)
T1730 8940:670 JLINK_ReadMemU32(0xE0001004, 0x0001 Items, ...) - Data: D6 F9 0E 06  returns 1 (0000ms, 49044ms total)
T2434 8940:670 JLINK_ReadMemEx(0x20000088, 0x0001 Bytes, ..., Flags = 0x02000000) -- CPU_ReadMem(1 bytes @ 0x20000088) - Data: 00  returns 0x01 (0000ms, 49044ms total)
T2434 8940:670 JLINK_ReadMemEx(0x20000089, 0x0001 Bytes, ..., Flags = 0x02000000) -- CPU_ReadMem(1 bytes @ 0x20000089) - Data: 00  returns 0x01 (0001ms, 49045ms total)
T2434 8940:671 JLINK_ReadMemEx(0x2000008A, 0x0002 Bytes, ..., Flags = 0x02000000) -- CPU_ReadMem(2 bytes @ 0x2000008A) - Data: 00 00  returns 0x02 (0000ms, 49045ms total)
T2434 8940:671 JLINK_ReadMemEx(0x20000024, 0x0001 Bytes, ..., Flags = 0x02000000) -- CPU_ReadMem(1 bytes @ 0x20000024) - Data: 01  returns 0x01 (0000ms, 49045ms total)
T2434 8940:671 JLINK_ReadMemEx(0x40021000, 0x0014 Bytes, ..., Flags = 0x02000004) -- CPU_ReadMem(20 bytes @ 0x40021000) - Data: 10 00 00 00 00 00 00 00 00 00 00 00 00 00 00 00 ...  returns 0x14 (0001ms, 49046ms total)
T2434 8940:672 JLINK_ReadMemEx(0x40021014, 0x0004 Bytes, ..., Flags = 0x02000004) -- CPU_ReadMem(4 bytes @ 0x40021014) - Data: 04 00 00 00  returns 0x04 (0000ms, 49046ms total)
T2434 8940:672 JLINK_ReadMemEx(0x4002101C, 0x0008 Bytes, ..., Flags = 0x02000004) -- CPU_ReadMem(8 bytes @ 0x4002101C) - Data: 00 00 00 00 00 00 00 00  returns 0x08 (0001ms, 49047ms total)
T2434 8940:673 JLINK_ReadMemEx(0x40021024, 0x0004 Bytes, ..., Flags = 0x02000004) -- CPU_ReadMem(4 bytes @ 0x40021024) - Data: 00 00 00 00  returns 0x04 (0000ms, 49047ms total)
T1730 8940:685 JLINK_IsHalted()  returns FALSE (0000ms, 49047ms total)
T1730 8940:786 JLINK_IsHalted()  returns FALSE (0000ms, 49047ms total)
T1730 8940:887 JLINK_IsHalted()  returns FALSE (0000ms, 49047ms total)
T1730 8940:987 JLINK_IsHalted()  returns FALSE (0000ms, 49047ms total)
T1730 8941:088 JLINK_IsHalted()  returns FALSE (0000ms, 49047ms total)
T1730 8941:189 JLINK_ReadMemU32(0xE0001004, 0x0001 Items, ...) - Data: D6 F9 0E 06  returns 1 (0000ms, 49047ms total)
T2434 8941:189 JLINK_ReadMemEx(0x20000088, 0x0001 Bytes, ..., Flags = 0x02000000) -- CPU_ReadMem(1 bytes @ 0x20000088) - Data: 00  returns 0x01 (0000ms, 49047ms total)
T2434 8941:189 JLINK_ReadMemEx(0x20000089, 0x0001 Bytes, ..., Flags = 0x02000000) -- CPU_ReadMem(1 bytes @ 0x20000089) - Data: 00  returns 0x01 (0001ms, 49048ms total)
T2434 8941:190 JLINK_ReadMemEx(0x2000008A, 0x0002 Bytes, ..., Flags = 0x02000000) -- CPU_ReadMem(2 bytes @ 0x2000008A) - Data: 00 00  returns 0x02 (0000ms, 49048ms total)
T2434 8941:190 JLINK_ReadMemEx(0x20000024, 0x0001 Bytes, ..., Flags = 0x02000000) -- CPU_ReadMem(1 bytes @ 0x20000024) - Data: 01  returns 0x01 (0001ms, 49049ms total)
T2434 8941:191 JLINK_ReadMemEx(0x40021000, 0x0014 Bytes, ..., Flags = 0x02000004) -- CPU_ReadMem(20 bytes @ 0x40021000) - Data: 10 00 00 00 00 00 00 00 00 00 00 00 00 00 00 00 ...  returns 0x14 (0000ms, 49049ms total)
T2434 8941:191 JLINK_ReadMemEx(0x40021014, 0x0004 Bytes, ..., Flags = 0x02000004) -- CPU_ReadMem(4 bytes @ 0x40021014) - Data: 04 00 00 00  returns 0x04 (0000ms, 49049ms total)
T2434 8941:191 JLINK_ReadMemEx(0x4002101C, 0x0008 Bytes, ..., Flags = 0x02000004) -- CPU_ReadMem(8 bytes @ 0x4002101C) - Data: 00 00 00 00 00 00 00 00  returns 0x08 (0001ms, 49050ms total)
T2434 8941:192 JLINK_ReadMemEx(0x40021024, 0x0004 Bytes, ..., Flags = 0x02000004) -- CPU_ReadMem(4 bytes @ 0x40021024) - Data: 00 00 00 00  returns 0x04 (0000ms, 49050ms total)
T1730 8941:193 JLINK_IsHalted()  returns FALSE (0000ms, 49050ms total)
T1730 8941:294 JLINK_IsHalted()  returns FALSE (0000ms, 49050ms total)
T1730 8941:395 JLINK_IsHalted()  returns FALSE (0000ms, 49050ms total)
T1730 8941:495 JLINK_IsHalted()  returns FALSE (0000ms, 49050ms total)
T1730 8941:596 JLINK_IsHalted()  returns FALSE (0000ms, 49050ms total)
T1730 8941:697 JLINK_IsHalted()  returns FALSE (0000ms, 49050ms total)
T1730 8941:798 JLINK_ReadMemU32(0xE0001004, 0x0001 Items, ...) - Data: D6 F9 0E 06  returns 1 (0000ms, 49050ms total)
T2434 8941:798 JLINK_ReadMemEx(0x20000088, 0x0001 Bytes, ..., Flags = 0x02000000) -- CPU_ReadMem(1 bytes @ 0x20000088) - Data: 00  returns 0x01 (0000ms, 49050ms total)
T2434 8941:798 JLINK_ReadMemEx(0x20000089, 0x0001 Bytes, ..., Flags = 0x02000000) -- CPU_ReadMem(1 bytes @ 0x20000089) - Data: 00  returns 0x01 (0001ms, 49051ms total)
T2434 8941:799 JLINK_ReadMemEx(0x2000008A, 0x0002 Bytes, ..., Flags = 0x02000000) -- CPU_ReadMem(2 bytes @ 0x2000008A) - Data: 00 00  returns 0x02 (0000ms, 49051ms total)
T2434 8941:799 JLINK_ReadMemEx(0x20000024, 0x0001 Bytes, ..., Flags = 0x02000000) -- CPU_ReadMem(1 bytes @ 0x20000024) - Data: 01  returns 0x01 (0000ms, 49051ms total)
T2434 8941:799 JLINK_ReadMemEx(0x40021000, 0x0014 Bytes, ..., Flags = 0x02000004) -- CPU_ReadMem(20 bytes @ 0x40021000) - Data: 10 00 00 00 00 00 00 00 00 00 00 00 00 00 00 00 ...  returns 0x14 (0001ms, 49052ms total)
T2434 8941:800 JLINK_ReadMemEx(0x40021014, 0x0004 Bytes, ..., Flags = 0x02000004) -- CPU_ReadMem(4 bytes @ 0x40021014) - Data: 04 00 00 00  returns 0x04 (0000ms, 49052ms total)
T2434 8941:800 JLINK_ReadMemEx(0x4002101C, 0x0008 Bytes, ..., Flags = 0x02000004) -- CPU_ReadMem(8 bytes @ 0x4002101C) - Data: 00 00 00 00 00 00 00 00  returns 0x08 (0000ms, 49052ms total)
T2434 8941:800 JLINK_ReadMemEx(0x40021024, 0x0004 Bytes, ..., Flags = 0x02000004) -- CPU_ReadMem(4 bytes @ 0x40021024) - Data: 00 00 00 00  returns 0x04 (0000ms, 49052ms total)
T1730 8941:802 JLINK_IsHalted()  returns FALSE (0000ms, 49052ms total)
T1730 8941:902 JLINK_IsHalted()  returns FALSE (0000ms, 49052ms total)
T1730 8942:003 JLINK_IsHalted()  returns FALSE (0000ms, 49052ms total)
T1730 8942:104 JLINK_IsHalted()  returns FALSE (0000ms, 49052ms total)
T1730 8942:205 JLINK_IsHalted()  returns FALSE (0000ms, 49052ms total)
T1730 8942:306 JLINK_IsHalted()  returns FALSE (0000ms, 49052ms total)
T1730 8942:407 JLINK_ReadMemU32(0xE0001004, 0x0001 Items, ...) - Data: D6 F9 0E 06  returns 1 (0000ms, 49052ms total)
T2434 8942:407 JLINK_ReadMemEx(0x20000088, 0x0001 Bytes, ..., Flags = 0x02000000) -- CPU_ReadMem(1 bytes @ 0x20000088) - Data: 00  returns 0x01 (0000ms, 49052ms total)
T2434 8942:407 JLINK_ReadMemEx(0x20000089, 0x0001 Bytes, ..., Flags = 0x02000000) -- CPU_ReadMem(1 bytes @ 0x20000089) - Data: 00  returns 0x01 (0001ms, 49053ms total)
T2434 8942:408 JLINK_ReadMemEx(0x2000008A, 0x0002 Bytes, ..., Flags = 0x02000000) -- CPU_ReadMem(2 bytes @ 0x2000008A) - Data: 00 00  returns 0x02 (0000ms, 49053ms total)
T2434 8942:408 JLINK_ReadMemEx(0x20000024, 0x0001 Bytes, ..., Flags = 0x02000000) -- CPU_ReadMem(1 bytes @ 0x20000024) - Data: FF  returns 0x01 (0000ms, 49053ms total)
T2434 8942:409 JLINK_ReadMemEx(0x40021000, 0x0014 Bytes, ..., Flags = 0x02000004) -- CPU_ReadMem(20 bytes @ 0x40021000) - Data: 10 00 00 00 00 00 00 00 00 00 00 00 00 00 00 00 ...  returns 0x14 (0000ms, 49053ms total)
T2434 8942:409 JLINK_ReadMemEx(0x40021014, 0x0004 Bytes, ..., Flags = 0x02000004) -- CPU_ReadMem(4 bytes @ 0x40021014) - Data: 00 00 00 00  returns 0x04 (0000ms, 49053ms total)
T2434 8942:409 JLINK_ReadMemEx(0x4002101C, 0x0008 Bytes, ..., Flags = 0x02000004) -- CPU_ReadMem(8 bytes @ 0x4002101C) - Data: 00 00 00 00 00 00 00 00  returns 0x08 (0001ms, 49054ms total)
T2434 8942:410 JLINK_ReadMemEx(0x40021024, 0x0004 Bytes, ..., Flags = 0x02000004) -- CPU_ReadMem(4 bytes @ 0x40021024) - Data: 00 00 00 00  returns 0x04 (0000ms, 49054ms total)
T1730 8942:420 JLINK_IsHalted()  returns FALSE (0001ms, 49055ms total)
T1730 8942:521 JLINK_IsHalted()  returns FALSE (0000ms, 49054ms total)
T1730 8942:622 JLINK_IsHalted()  returns FALSE (0000ms, 49054ms total)
T1730 8942:723 JLINK_IsHalted()  returns FALSE (0000ms, 49054ms total)
T1730 8942:824 JLINK_IsHalted()  returns FALSE (0000ms, 49054ms total)
T1730 8942:924 JLINK_ReadMemU32(0xE0001004, 0x0001 Items, ...) - Data: D6 F9 0E 06  returns 1 (0000ms, 49054ms total)
T2434 8942:924 JLINK_ReadMemEx(0x20000088, 0x0001 Bytes, ..., Flags = 0x02000000) -- CPU_ReadMem(1 bytes @ 0x20000088) - Data: 00  returns 0x01 (0000ms, 49054ms total)
T2434 8942:924 JLINK_ReadMemEx(0x20000089, 0x0001 Bytes, ..., Flags = 0x02000000) -- CPU_ReadMem(1 bytes @ 0x20000089) - Data: 00  returns 0x01 (0001ms, 49055ms total)
T2434 8942:925 JLINK_ReadMemEx(0x2000008A, 0x0002 Bytes, ..., Flags = 0x02000000) -- CPU_ReadMem(2 bytes @ 0x2000008A) - Data: 00 00  returns 0x02 (0000ms, 49055ms total)
T2434 8942:925 JLINK_ReadMemEx(0x20000024, 0x0001 Bytes, ..., Flags = 0x02000000) -- CPU_ReadMem(1 bytes @ 0x20000024) - Data: FF  returns 0x01 (0000ms, 49055ms total)
T2434 8942:925 JLINK_ReadMemEx(0x40021000, 0x0014 Bytes, ..., Flags = 0x02000004) -- CPU_ReadMem(20 bytes @ 0x40021000) - Data: 10 00 00 00 00 00 00 00 00 00 00 00 00 00 00 00 ...  returns 0x14 (0001ms, 49056ms total)
T2434 8942:926 JLINK_ReadMemEx(0x40021014, 0x0004 Bytes, ..., Flags = 0x02000004) -- CPU_ReadMem(4 bytes @ 0x40021014) - Data: 00 00 00 00  returns 0x04 (0000ms, 49056ms total)
T2434 8942:926 JLINK_ReadMemEx(0x4002101C, 0x0008 Bytes, ..., Flags = 0x02000004) -- CPU_ReadMem(8 bytes @ 0x4002101C) - Data: 00 00 00 00 00 00 00 00  returns 0x08 (0000ms, 49056ms total)
T2434 8942:926 JLINK_ReadMemEx(0x40021024, 0x0004 Bytes, ..., Flags = 0x02000004) -- CPU_ReadMem(4 bytes @ 0x40021024) - Data: 00 00 00 00  returns 0x04 (0000ms, 49056ms total)
T1730 8942:928 JLINK_IsHalted()  returns FALSE (0001ms, 49057ms total)
T1730 8943:030 JLINK_IsHalted()  returns FALSE (0000ms, 49056ms total)
T1730 8943:131 JLINK_IsHalted()  returns FALSE (0000ms, 49056ms total)
T1730 8943:232 JLINK_IsHalted()  returns FALSE (0000ms, 49056ms total)
T1730 8943:332 JLINK_IsHalted()  returns FALSE (0000ms, 49056ms total)
T1730 8943:433 JLINK_IsHalted()  returns FALSE (0000ms, 49056ms total)
T1730 8943:534 JLINK_ReadMemU32(0xE0001004, 0x0001 Items, ...) - Data: D6 F9 0E 06  returns 1 (0000ms, 49056ms total)
